date Sun Mar 22 08:48:49 2026
base hex  timestamps absolute
internal events logged
// version 8.5.0
   0.000000 1  0CF00400x        Rx   d 8 F0 00 7D 80 25 FF FF FF
   0.005000 1  18FEF100x        Rx   d 8 FF 00 00 FA FF FF FF FF
   0.010000 1  18FEEE00x        Rx   d 8 91 FF FF FF FF FF FF FF
   0.020000 1  0CF00400x        Rx   d 8 F0 00 7D 94 26 FF FF FF
   0.025000 1  18FEF100x        Rx   d 8 FF 00 00 FA FF FF FF FF
   0.100000 1  0CF00400x        Rx   d 8 F0 00 7D A8 27 FF FF FF
   0.105000 1  18FEEE00x        Rx   d 8 92 FF FF FF FF FF FF FF
   0.200000 1  0CF00400x        Rx   d 8 F0 00 7D BC 28 FF FF FF
   0.205000 1  18FEF100x        Rx   d 8 FF 04 00 FA FF FF FF FF
   0.300000 1  18FEF700x        Rx   d 8 01 00 64 4B FF FF FF FF
   0.300000 1  0CF00400x        Rx   d 8 F0 00 7D D0 29 FF FF FF
   0.400000 1  0CF00400x        Rx   d 8 F0 00 7D E4 2A FF FF FF
   0.500000 1  0CF00400x        Rx   d 8 F0 00 7D F8 2B FF FF FF
   0.500000 1  0C000063x        Rx   d 8 01 00 02 00 63 FF FF FF
   0.505000 1  18FF0063x        Rx   d 8 04 14 64 F0 00 00 00 00
   0.505000 1  18FF0063x        Rx   d 8 03 00 00 00 63 00 00 00
   0.505000 1  18FF0063x        Rx   d 8 02 00 01 00 00 00 00 00
   0.600000 1  0CF00400x        Rx   d 8 F0 00 7D F8 2B FF FF FF
   0.600000 1  18FF0063x        Rx   d 8 04 28 64 F0 00 00 00 00
   0.700000 1  18FF0063x        Rx   d 8 04 3C 64 F0 00 00 00 00
   0.800000 1  18FF0063x        Rx   d 8 04 50 64 F0 00 00 00 00
   0.900000 1  18FF0063x        Rx   d 8 04 64 64 F0 00 00 00 00
   1.000000 1  0CF00400x        Rx   d 8 F0 00 7D F8 2B FF FF FF
   1.000000 1  18FF0063x        Rx   d 8 04 78 64 F0 00 00 00 00
   1.000000 1  18FEEE00x        Rx   d 8 98 FF FF FF FF FF FF FF
   1.005000 1  18FEF100x        Rx   d 8 FF 08 00 FA FF FF FF FF
   1.100000 1  18FF0063x        Rx   d 8 04 8C 64 F0 00 00 00 00
   1.200000 1  18FF0063x        Rx   d 8 04 A0 64 F0 00 00 00 00
   1.300000 1  100              Rx   d 8 01 02 03 04 05 06 07 08
   1.305000 1  200              Rx   d 8 AA BB CC DD EE FF 10 20
   1.310000 1  7E8              Rx   d 8 03 41 0C A0 00 00 00 00
   1.315000 1  7E0              Rx   d 8 02 01 0C 00 00 00 00 00
   1.400000 1  0CF00400x        Rx   d 8 F0 00 7D F8 2B FF FF FF
   1.500000 1  18FEF500x        Rx   d 8 A0 03 00 00 FF FF FF FF
   1.500000 1  18FE5A63x        Rx   d 8 01 00 00 00 00 00 00 00
   2.000000 1  0CF00400x        Rx   d 8 F0 00 7D F8 2B FF FF FF
   2.000000 1  0C000063x        Rx   d 8 0A 00 02 00 63 FF FF FF
   2.005000 1  18FEEE00x        Rx   d 8 A0 FF FF FF FF FF FF FF
   2.100000 1  18FF0063x        Rx   d 8 04 C8 64 F0 00 00 00 00
   2.200000 1  18FE5A63x        Rx   d 8 00 00 00 00 00 00 00 00
   2.300000 1  0CF00400x        Rx   d 8 F0 00 7D 80 25 FF FF FF
   2.305000 1  18FEF100x        Rx   d 8 FF 0C 00 FA FF FF FF FF
   2.400000 1  18FEEE00x        Rx   d 8 A2 FF FF FF FF FF FF FF
   2.500000 1  18FEF700x        Rx   d 8 02 00 64 4C FF FF FF FF
   3.000000 1  18EFF001x        Rx   d 3 EC F0 18
   3.000000 1  0CF00400x        Rx   d 8 F0 00 7D 80 25 FF FF FF
End TriggerBlock
